T1880 000:097.431   SEGGER J-Link V7.54c Log File
T1880 000:097.612   DLL Compiled: Sep 20 2021 13:55:02
T1880 000:097.640   Logging started @ 2022-05-19 02:37
T1880 000:097.662 - 97.673ms
T1880 000:097.689 JLINK_SetWarnOutHandler(...)
T1880 000:097.714 - 0.035ms
T1880 000:097.738 JLINK_OpenEx(...)
T1880 000:099.186   Firmware: J-Link V9 compiled May  7 2021 16:26:12
T1880 000:099.499   Firmware: J-Link V9 compiled May  7 2021 16:26:12
T1880 000:099.686   Decompressing FW timestamp took 142 us
T1880 000:105.730   Hardware: V9.70
T1880 000:105.778   S/N: 59768854
T1880 000:105.812   OEM: SEGGER
T1880 000:105.845   Feature(s): RDI, GDB, FlashDL, FlashBP, JFlash
T1880 000:106.918   TELNET listener socket opened on port 19021
T1880 000:107.229   WEBSRV Starting webserver
T1880 000:107.574   WEBSRV Webserver running on local port 19080
T1880 000:125.456 - 27.744ms returns "O.K."
T1880 000:125.508 JLINK_SetErrorOutHandler(...)
T1880 000:125.531 - 0.034ms
T1880 000:125.571 JLINK_ExecCommand("ProjectFile = "C:\Users\Mr.Yan\Desktop\assistive_exso - ¶¶¶¯\Keil\JLinkSettings.ini"", ...). 
T1880 000:140.082   Ref file found at: C:\Program Files (x86)\keil5\ARM\Segger\JLinkDevices.ref
T1880 000:146.629   XML referenced by ref file: C:\Program Files\SEGGER\JLink\JLinkDevices.xml
T1880 000:147.521   C:\Program Files\SEGGER\JLink\JLinkDevices.xml evaluated successfully.
T1880 000:253.535   Device "CORTEX-M3" selected.
T1880 000:253.875 - 128.320ms returns 0x00
T1880 000:255.312 JLINK_ExecCommand("Device = STM32F103RE", ...). 
T1880 000:257.341   Device "STM32F103RE" selected.
T1880 000:257.683 - 2.353ms returns 0x00
T1880 000:257.714 JLINK_ExecCommand("DisableConnectionTimeout", ...). 
T1880 000:257.741 - 0.013ms returns 0x01
T1880 000:257.766 JLINK_GetHardwareVersion()
T1880 000:257.788 - 0.033ms returns 97000
T1880 000:257.812 JLINK_GetDLLVersion()
T1880 000:257.838 - 0.037ms returns 75403
T1880 000:257.863 JLINK_GetOEMString(...)
T1880 000:257.888 JLINK_GetFirmwareString(...)
T1880 000:257.910 - 0.033ms
T1880 000:267.381 JLINK_GetDLLVersion()
T1880 000:267.418 - 0.047ms returns 75403
T1880 000:267.443 JLINK_GetCompileDateTime()
T1880 000:267.465 - 0.033ms
T1880 000:270.433 JLINK_GetFirmwareString(...)
T1880 000:270.465 - 0.043ms
T1880 000:273.261 JLINK_GetHardwareVersion()
T1880 000:273.292 - 0.041ms returns 97000
T1880 000:275.538 JLINK_GetSN()
T1880 000:275.572 - 0.045ms returns 59768854
T1880 000:279.142 JLINK_GetOEMString(...)
T1880 000:285.632 JLINK_TIF_Select(JLINKARM_TIF_SWD)
T1880 000:286.105 - 0.491ms returns 0x00
T1880 000:286.139 JLINK_HasError()
T1880 000:286.169 JLINK_SetSpeed(3000)
T1880 000:286.252 - 0.099ms
T1880 000:286.284 JLINK_GetId()
T1880 000:288.880   InitTarget() start
T1880 000:288.924    J-Link Script File: Executing InitTarget()
T1880 000:298.371   InitTarget() end
T1880 000:301.348   Found SW-DP with ID 0x1BA01477
T1880 000:305.970   DPIDR: 0x1BA01477
T1880 000:308.423   Scanning AP map to find all available APs
T1880 000:313.913   AP[1]: Stopped AP scan as end of AP map has been reached
T1880 000:316.264   AP[0]: AHB-AP (IDR: 0x14770011)
T1880 000:318.740   Iterating through AP map to find AHB-AP to use
T1880 000:322.521   AP[0]: Core found
T1880 000:325.067   AP[0]: AHB-AP ROM base: 0xE00FF000
T1880 000:331.196   CPUID register: 0x411FC231. Implementer code: 0x41 (ARM)
T1880 000:333.499   Found Cortex-M3 r1p1, Little endian.
T1880 000:434.416   -- Max. mem block: 0x00010C20
T1880 000:435.216   CPU_ReadMem(4 bytes @ 0xE000EDF0)
T1880 000:435.707   CPU_WriteMem(4 bytes @ 0xE000EDF0)
T1880 000:436.270   CPU_ReadMem(4 bytes @ 0xE0002000)
T1880 000:441.003   FPUnit: 6 code (BP) slots and 2 literal slots
T1880 000:441.061   CPU_ReadMem(4 bytes @ 0xE000EDFC)
T1880 000:441.354   CPU_WriteMem(4 bytes @ 0xE000EDFC)
T1880 000:441.670   CPU_ReadMem(4 bytes @ 0xE0001000)
T1880 000:441.967   CPU_WriteMem(4 bytes @ 0xE0001000)
T1880 000:442.323   CPU_ReadMem(4 bytes @ 0xE000ED88)
T1880 000:442.617   CPU_WriteMem(4 bytes @ 0xE000ED88)
T1880 000:443.020   CPU_ReadMem(4 bytes @ 0xE000ED88)
T1880 000:443.351   CPU_WriteMem(4 bytes @ 0xE000ED88)
T1880 000:445.963   CoreSight components:
T1880 000:448.385   ROMTbl[0] @ E00FF000
T1880 000:448.428   CPU_ReadMem(64 bytes @ 0xE00FF000)
T1880 000:449.422   CPU_ReadMem(32 bytes @ 0xE000EFE0)
T1880 000:455.266   [0][0]: E000E000 CID B105E00D PID 001BB000 SCS
T1880 000:455.321   CPU_ReadMem(32 bytes @ 0xE0001FE0)
T1880 000:458.152   [0][1]: E0001000 CID B105E00D PID 001BB002 DWT
T1880 000:458.208   CPU_ReadMem(32 bytes @ 0xE0002FE0)
T1880 000:461.000   [0][2]: E0002000 CID B105E00D PID 000BB003 FPB
T1880 000:461.043   CPU_ReadMem(32 bytes @ 0xE0000FE0)
T1880 000:463.831   [0][3]: E0000000 CID B105E00D PID 001BB001 ITM
T1880 000:463.875   CPU_ReadMem(32 bytes @ 0xE0040FE0)
T1880 000:467.447   [0][4]: E0040000 CID B105900D PID 001BB923 TPIU-Lite
T1880 000:467.506   CPU_ReadMem(32 bytes @ 0xE0041FE0)
T1880 000:472.764   [0][5]: E0041000 CID B105900D PID 101BB924 ETM-M3
T1880 000:473.022 - 186.754ms returns 0x1BA01477
T1880 000:473.058 JLINK_GetDLLVersion()
T1880 000:473.082 - 0.035ms returns 75403
T1880 000:473.109 JLINK_CORE_GetFound()
T1880 000:473.132 - 0.034ms returns 0x30000FF
T1880 000:473.159 JLINK_GetDebugInfo(0x100 = JLINKARM_ROM_TABLE_ADDR_INDEX)
T1880 000:473.183   Value=0xE00FF000
T1880 000:473.217 - 0.069ms returns 0
T1880 000:476.353 JLINK_GetDebugInfo(0x100 = JLINKARM_ROM_TABLE_ADDR_INDEX)
T1880 000:476.397   Value=0xE00FF000
T1880 000:476.430 - 0.087ms returns 0
T1880 000:476.454 JLINK_GetDebugInfo(0x101 = JLINKARM_DEBUG_INFO_ETM_ADDR_INDEX)
T1880 000:476.477   Value=0xE0041000
T1880 000:476.509 - 0.066ms returns 0
T1880 000:476.533 JLINK_GetDebugInfo(0x102 = JLINKARM_DEBUG_INFO_MTB_ADDR_INDEX)
T1880 000:476.555   Value=0x00000000
T1880 000:476.588 - 0.065ms returns 0
T1880 000:476.613 JLINK_GetDebugInfo(0x103 = JLINKARM_DEBUG_INFO_TPIU_ADDR_INDEX)
T1880 000:476.636   Value=0xE0040000
T1880 000:476.668 - 0.065ms returns 0
T1880 000:476.692 JLINK_GetDebugInfo(0x104 = JLINKARM_DEBUG_INFO_ITM_ADDR_INDEX)
T1880 000:476.714   Value=0xE0000000
T1880 000:476.746 - 0.065ms returns 0
T1880 000:476.770 JLINK_GetDebugInfo(0x105 = JLINKARM_DEBUG_INFO_DWT_ADDR_INDEX)
T1880 000:476.792   Value=0xE0001000
T1880 000:476.824 - 0.065ms returns 0
T1880 000:476.848 JLINK_GetDebugInfo(0x106 = JLINKARM_DEBUG_INFO_FPB_ADDR_INDEX)
T1880 000:476.870   Value=0xE0002000
T1880 000:476.906 - 0.069ms returns 0
T1880 000:476.930 JLINK_GetDebugInfo(0x107 = JLINKARM_DEBUG_INFO_NVIC_ADDR_INDEX)
T1880 000:476.952   Value=0xE000E000
T1880 000:476.984 - 0.065ms returns 0
T1880 000:477.008 JLINK_GetDebugInfo(0x10C = JLINKARM_DEBUG_INFO_DBG_ADDR_INDEX)
T1880 000:477.030   Value=0xE000EDF0
T1880 000:477.062 - 0.065ms returns 0
T1880 000:477.091 JLINK_ReadMemU32(0xE000ED00, 0x1 Items)
T1880 000:477.134   CPU_ReadMem(4 bytes @ 0xE000ED00)
T1880 000:477.497   Data:  31 C2 1F 41
T1880 000:477.538   Debug reg: CPUID
T1880 000:477.571 - 0.490ms returns 1 (0x1)
T1880 000:477.597 JLINK_HasError()
T1880 000:477.623 JLINK_SetResetType(JLINKARM_CM3_RESET_TYPE_NORMAL)
T1880 000:477.646 - 0.033ms returns JLINKARM_CM3_RESET_TYPE_NORMAL
T1880 000:477.670 JLINK_Reset()
T1880 000:477.700   CPU is running
T1880 000:477.735   CPU_WriteMem(4 bytes @ 0xE000EDF0)
T1880 000:478.098   CPU is running
T1880 000:478.139   CPU_WriteMem(4 bytes @ 0xE000EDFC)
T1880 000:480.802   Reset: Halt core after reset via DEMCR.VC_CORERESET.
T1880 000:483.530   Reset: Reset device via AIRCR.SYSRESETREQ.
T1880 000:483.572   CPU is running
T1880 000:483.607   CPU_WriteMem(4 bytes @ 0xE000ED0C)
T1880 000:535.892   CPU_ReadMem(4 bytes @ 0xE000EDF0)
T1880 000:536.193   CPU_ReadMem(4 bytes @ 0xE000EDF0)
T1880 000:536.522   CPU is running
T1880 000:536.562   CPU_WriteMem(4 bytes @ 0xE000EDF0)
T1880 000:536.848   CPU is running
T1880 000:536.887   CPU_WriteMem(4 bytes @ 0xE000EDFC)
T1880 000:542.664   CPU_ReadMem(4 bytes @ 0xE000EDF0)
T1880 000:545.770   CPU_WriteMem(4 bytes @ 0xE0002000)
T1880 000:546.460   CPU_ReadMem(4 bytes @ 0xE000EDFC)
T1880 000:546.941   CPU_ReadMem(4 bytes @ 0xE0001000)
T1880 000:547.428 - 69.805ms
T1880 000:547.510 JLINK_Halt()
T1880 000:547.537 - 0.038ms returns 0x00
T1880 000:547.563 JLINK_IsHalted()
T1880 000:547.597 - 0.056ms returns TRUE
T1880 000:547.636 JLINK_ReadMemU32(0xE000EDF0, 0x1 Items)
T1880 000:547.667   CPU_ReadMem(4 bytes @ 0xE000EDF0)
T1880 000:548.008   Data:  03 00 03 00
T1880 000:548.061   Debug reg: DHCSR
T1880 000:548.113 - 0.496ms returns 1 (0x1)
T1880 000:548.209 JLINK_WriteU32_64(0xE000EDF0, 0xA05F0003)
T1880 000:548.250   Debug reg: DHCSR
T1880 000:549.085   CPU_WriteMem(4 bytes @ 0xE000EDF0)
T1880 000:549.423 - 1.232ms returns 0 (0x00000000)
T1880 000:549.460 JLINK_WriteU32_64(0xE000EDFC, 0x01000000)
T1880 000:549.485   Debug reg: DEMCR
T1880 000:549.525   CPU_WriteMem(4 bytes @ 0xE000EDFC)
T1880 000:549.888 - 0.445ms returns 0 (0x00000000)
T1880 000:559.667 JLINK_GetHWStatus(...)
T1880 000:559.916 - 0.269ms returns 0
T1880 000:569.112 JLINK_GetNumBPUnits(Type = 0xFFFFFF00)
T1880 000:569.149 - 0.049ms returns 0x06
T1880 000:569.174 JLINK_GetNumBPUnits(Type = 0xF0)
T1880 000:569.197 - 0.033ms returns 0x2000
T1880 000:569.221 JLINK_GetNumWPUnits()
T1880 000:569.243 - 0.033ms returns 4
T1880 000:575.880 JLINK_GetSpeed()
T1880 000:575.923 - 0.054ms returns 3000
T1880 000:583.122 JLINK_ReadMemU32(0xE000E004, 0x1 Items)
T1880 000:583.173   CPU_ReadMem(4 bytes @ 0xE000E004)
T1880 000:583.530   Data:  01 00 00 00
T1880 000:583.574 - 0.463ms returns 1 (0x1)
T1880 000:583.602 JLINK_ReadMemU32(0xE000E004, 0x1 Items)
T1880 000:583.630   CPU_ReadMem(4 bytes @ 0xE000E004)
T1880 000:583.926   Data:  01 00 00 00
T1880 000:583.965 - 0.375ms returns 1 (0x1)
T1880 000:583.992 JLINK_WriteMem(0xE0001000, 0x1C Bytes, ...)
T1880 000:584.017   Data:  01 00 00 00 00 00 00 00 00 00 00 00 00 00 00 00 ...
T1880 000:584.059   CPU_WriteMem(28 bytes @ 0xE0001000)
T1880 000:584.473 - 0.496ms returns 0x1C
T1880 000:584.504 JLINK_ReadMem(0xE0001000, 0x1C Bytes, ...)
T1880 000:584.532   CPU_ReadMem(28 bytes @ 0xE0001000)
T1880 000:585.030   Data:  01 00 00 40 00 00 00 00 00 00 00 00 00 00 00 00 ...
T1880 000:585.068 - 0.575ms returns 0
T1880 000:585.096 JLINK_Halt()
T1880 000:585.119 - 0.034ms returns 0x00
T1880 000:585.143 JLINK_IsHalted()
T1880 000:585.165 - 0.033ms returns TRUE
T1880 000:592.195 JLINK_WriteMem(0x20000000, 0x164 Bytes, ...)
T1880 000:592.229   Data:  00 BE 0A E0 0D 78 2D 06 68 40 08 24 40 00 00 D3 ...
T1880 000:592.503   CPU_WriteMem(356 bytes @ 0x20000000)
T1880 000:594.754 - 2.591ms returns 0x164
T1880 000:594.835 JLINK_HasError()
T1880 000:594.863 JLINK_WriteReg(R0, 0x08000000)
T1880 000:594.899 - 0.047ms returns 0
T1880 000:594.924 JLINK_WriteReg(R1, 0x00B71B00)
T1880 000:594.947 - 0.034ms returns 0
T1880 000:594.971 JLINK_WriteReg(R2, 0x00000001)
T1880 000:594.994 - 0.034ms returns 0
T1880 000:595.018 JLINK_WriteReg(R3, 0x00000000)
T1880 000:595.041 - 0.033ms returns 0
T1880 000:595.065 JLINK_WriteReg(R4, 0x00000000)
T1880 000:595.087 - 0.033ms returns 0
T1880 000:595.111 JLINK_WriteReg(R5, 0x00000000)
T1880 000:595.133 - 0.033ms returns 0
T1880 000:595.157 JLINK_WriteReg(R6, 0x00000000)
T1880 000:595.180 - 0.033ms returns 0
T1880 000:595.203 JLINK_WriteReg(R7, 0x00000000)
T1880 000:595.227 - 0.044ms returns 0
T1880 000:595.264 JLINK_WriteReg(R8, 0x00000000)
T1880 000:595.301 - 0.052ms returns 0
T1880 000:595.333 JLINK_WriteReg(R9, 0x20000160)
T1880 000:595.365 - 0.043ms returns 0
T1880 000:595.390 JLINK_WriteReg(R10, 0x00000000)
T1880 000:595.413 - 0.034ms returns 0
T1880 000:595.437 JLINK_WriteReg(R11, 0x00000000)
T1880 000:595.471 - 0.045ms returns 0
T1880 000:595.496 JLINK_WriteReg(R12, 0x00000000)
T1880 000:595.547 - 0.069ms returns 0
T1880 000:595.589 JLINK_WriteReg(R13 (SP), 0x20001000)
T1880 000:595.623 - 0.046ms returns 0
T1880 000:595.648 JLINK_WriteReg(R14, 0x20000001)
T1880 000:595.688 - 0.058ms returns 0
T1880 000:595.721 JLINK_WriteReg(R15 (PC), 0x20000038)
T1880 000:595.748 - 0.038ms returns 0
T1880 000:595.773 JLINK_WriteReg(XPSR, 0x01000000)
T1880 000:595.801 - 0.039ms returns 0
T1880 000:595.825 JLINK_WriteReg(MSP, 0x20001000)
T1880 000:595.848 - 0.034ms returns 0
T1880 000:595.872 JLINK_WriteReg(PSP, 0x20001000)
T1880 000:595.895 - 0.033ms returns 0
T1880 000:595.919 JLINK_WriteReg(CFBP, 0x00000000)
T1880 000:595.942 - 0.034ms returns 0
T1880 000:595.966 JLINK_SetBPEx(Addr = 0x20000000, Type = 0xFFFFFFF2)
T1880 000:595.996   CPU_ReadMem(2 bytes @ 0x20000000)
T1880 000:596.328 - 0.387ms returns 0x00000001
T1880 000:596.372 JLINK_Go()
T1880 000:596.400   CPU_WriteMem(2 bytes @ 0x20000000)
T1880 000:596.702   CPU_ReadMem(4 bytes @ 0xE0001000)
T1880 000:597.040   CPU_WriteMem(4 bytes @ 0xE0002008)
T1880 000:597.081   CPU_WriteMem(4 bytes @ 0xE000200C)
T1880 000:597.116   CPU_WriteMem(4 bytes @ 0xE0002010)
T1880 000:597.150   CPU_WriteMem(4 bytes @ 0xE0002014)
T1880 000:597.184   CPU_WriteMem(4 bytes @ 0xE0002018)
T1880 000:597.218   CPU_WriteMem(4 bytes @ 0xE000201C)
T1880 000:598.524   CPU_WriteMem(4 bytes @ 0xE0001004)
T1880 000:601.557 - 5.202ms
T1880 000:601.593 JLINK_IsHalted()
T1880 000:604.463   CPU_ReadMem(2 bytes @ 0x20000000)
T1880 000:604.825 - 3.249ms returns TRUE
T1880 000:604.861 JLINK_ReadReg(R15 (PC))
T1880 000:604.887 - 0.038ms returns 0x20000000
T1880 000:604.914 JLINK_ClrBPEx(BPHandle = 0x00000001)
T1880 000:604.938 - 0.036ms returns 0x00
T1880 000:604.964 JLINK_ReadReg(R0)
T1880 000:604.988 - 0.035ms returns 0x00000000
T1880 000:605.341 JLINK_HasError()
T1880 000:605.371 JLINK_WriteReg(R0, 0x08000000)
T1880 000:605.395 - 0.036ms returns 0
T1880 000:605.420 JLINK_WriteReg(R1, 0x00B71B00)
T1880 000:605.443 - 0.034ms returns 0
T1880 000:605.467 JLINK_WriteReg(R2, 0x00000001)
T1880 000:605.489 - 0.033ms returns 0
T1880 000:605.513 JLINK_WriteReg(R3, 0x00000000)
T1880 000:605.536 - 0.033ms returns 0
T1880 000:605.560 JLINK_WriteReg(R4, 0x00000000)
T1880 000:605.582 - 0.033ms returns 0
T1880 000:605.606 JLINK_WriteReg(R5, 0x00000000)
T1880 000:605.629 - 0.033ms returns 0
T1880 000:605.653 JLINK_WriteReg(R6, 0x00000000)
T1880 000:605.675 - 0.033ms returns 0
T1880 000:605.699 JLINK_WriteReg(R7, 0x00000000)
T1880 000:605.722 - 0.033ms returns 0
T1880 000:605.746 JLINK_WriteReg(R8, 0x00000000)
T1880 000:605.768 - 0.033ms returns 0
T1880 000:605.792 JLINK_WriteReg(R9, 0x20000160)
T1880 000:605.815 - 0.033ms returns 0
T1880 000:605.839 JLINK_WriteReg(R10, 0x00000000)
T1880 000:605.862 - 0.033ms returns 0
T1880 000:605.886 JLINK_WriteReg(R11, 0x00000000)
T1880 000:605.908 - 0.033ms returns 0
T1880 000:605.932 JLINK_WriteReg(R12, 0x00000000)
T1880 000:605.955 - 0.033ms returns 0
T1880 000:605.979 JLINK_WriteReg(R13 (SP), 0x20001000)
T1880 000:606.002 - 0.034ms returns 0
T1880 000:606.026 JLINK_WriteReg(R14, 0x20000001)
T1880 000:606.049 - 0.033ms returns 0
T1880 000:606.073 JLINK_WriteReg(R15 (PC), 0x2000007C)
T1880 000:606.095 - 0.034ms returns 0
T1880 000:606.119 JLINK_WriteReg(XPSR, 0x01000000)
T1880 000:606.142 - 0.033ms returns 0
T1880 000:606.166 JLINK_WriteReg(MSP, 0x20001000)
T1880 000:606.189 - 0.033ms returns 0
T1880 000:606.212 JLINK_WriteReg(PSP, 0x20001000)
T1880 000:606.235 - 0.033ms returns 0
T1880 000:606.259 JLINK_WriteReg(CFBP, 0x00000000)
T1880 000:606.282 - 0.034ms returns 0
T1880 000:606.307 JLINK_SetBPEx(Addr = 0x20000000, Type = 0xFFFFFFF2)
T1880 000:606.330 - 0.034ms returns 0x00000002
T1880 000:606.354 JLINK_Go()
T1880 000:606.382   CPU_ReadMem(4 bytes @ 0xE0001000)
T1880 000:609.404 - 3.077ms
T1880 000:609.448 JLINK_IsHalted()
T1880 000:609.804 - 0.374ms returns FALSE
T1880 000:609.840 JLINK_HasError()
T1880 000:630.477 JLINK_IsHalted()
T1880 000:631.025 - 0.578ms returns FALSE
T1880 000:631.077 JLINK_HasError()
T1880 000:633.491 JLINK_IsHalted()
T1880 000:636.575   CPU_ReadMem(2 bytes @ 0x20000000)
T1880 000:637.204 - 3.746ms returns TRUE
T1880 000:637.256 JLINK_ReadReg(R15 (PC))
T1880 000:637.285 - 0.040ms returns 0x20000000
T1880 000:637.310 JLINK_ClrBPEx(BPHandle = 0x00000002)
T1880 000:637.334 - 0.076ms returns 0x00
T1880 000:637.406 JLINK_ReadReg(R0)
T1880 000:637.431 - 0.036ms returns 0x00000000
T1880 000:691.185 JLINK_HasError()
T1880 000:691.237 JLINK_WriteReg(R0, 0x00000001)
T1880 000:691.264 - 0.039ms returns 0
T1880 000:691.289 JLINK_WriteReg(R1, 0x00B71B00)
T1880 000:691.313 - 0.035ms returns 0
T1880 000:691.337 JLINK_WriteReg(R2, 0x00000001)
T1880 000:691.360 - 0.034ms returns 0
T1880 000:691.384 JLINK_WriteReg(R3, 0x00000000)
T1880 000:691.407 - 0.034ms returns 0
T1880 000:691.431 JLINK_WriteReg(R4, 0x00000000)
T1880 000:691.454 - 0.034ms returns 0
T1880 000:691.478 JLINK_WriteReg(R5, 0x00000000)
T1880 000:691.501 - 0.034ms returns 0
T1880 000:691.525 JLINK_WriteReg(R6, 0x00000000)
T1880 000:691.548 - 0.034ms returns 0
T1880 000:691.572 JLINK_WriteReg(R7, 0x00000000)
T1880 000:691.595 - 0.034ms returns 0
T1880 000:691.619 JLINK_WriteReg(R8, 0x00000000)
T1880 000:691.646 - 0.038ms returns 0
T1880 000:691.670 JLINK_WriteReg(R9, 0x20000160)
T1880 000:691.695 - 0.036ms returns 0
T1880 000:691.720 JLINK_WriteReg(R10, 0x00000000)
T1880 000:691.744 - 0.035ms returns 0
T1880 000:691.768 JLINK_WriteReg(R11, 0x00000000)
T1880 000:691.791 - 0.034ms returns 0
T1880 000:691.815 JLINK_WriteReg(R12, 0x00000000)
T1880 000:691.838 - 0.034ms returns 0
T1880 000:691.862 JLINK_WriteReg(R13 (SP), 0x20001000)
T1880 000:691.886 - 0.034ms returns 0
T1880 000:691.910 JLINK_WriteReg(R14, 0x20000001)
T1880 000:691.933 - 0.034ms returns 0
T1880 000:691.957 JLINK_WriteReg(R15 (PC), 0x2000006A)
T1880 000:691.980 - 0.034ms returns 0
T1880 000:692.004 JLINK_WriteReg(XPSR, 0x01000000)
T1880 000:692.027 - 0.035ms returns 0
T1880 000:692.052 JLINK_WriteReg(MSP, 0x20001000)
T1880 000:692.075 - 0.034ms returns 0
T1880 000:692.102 JLINK_WriteReg(PSP, 0x20001000)
T1880 000:692.125 - 0.034ms returns 0
T1880 000:692.149 JLINK_WriteReg(CFBP, 0x00000000)
T1880 000:692.172 - 0.034ms returns 0
T1880 000:692.196 JLINK_SetBPEx(Addr = 0x20000000, Type = 0xFFFFFFF2)
T1880 000:692.220 - 0.035ms returns 0x00000003
T1880 000:692.244 JLINK_Go()
T1880 000:692.277   CPU_ReadMem(4 bytes @ 0xE0001000)
T1880 000:695.173 - 2.947ms
T1880 000:695.208 JLINK_IsHalted()
T1880 000:697.892   CPU_ReadMem(2 bytes @ 0x20000000)
T1880 000:698.222 - 3.031ms returns TRUE
T1880 000:698.256 JLINK_ReadReg(R15 (PC))
T1880 000:698.282 - 0.037ms returns 0x20000000
T1880 000:698.307 JLINK_ClrBPEx(BPHandle = 0x00000003)
T1880 000:698.331 - 0.035ms returns 0x00
T1880 000:698.356 JLINK_ReadReg(R0)
T1880 000:698.379 - 0.035ms returns 0x00000000
T1880 000:703.337 JLINK_WriteMem(0x20000000, 0x164 Bytes, ...)
T1880 000:703.367   Data:  00 BE 0A E0 0D 78 2D 06 68 40 08 24 40 00 00 D3 ...
T1880 000:703.408   CPU_WriteMem(356 bytes @ 0x20000000)
T1880 000:705.650 - 2.345ms returns 0x164
T1880 000:705.731 JLINK_HasError()
T1880 000:705.759 JLINK_WriteReg(R0, 0x08000000)
T1880 000:705.787 - 0.040ms returns 0
T1880 000:705.815 JLINK_WriteReg(R1, 0x00B71B00)
T1880 000:705.851 - 0.048ms returns 0
T1880 000:705.879 JLINK_WriteReg(R2, 0x00000002)
T1880 000:705.913 - 0.050ms returns 0
T1880 000:705.953 JLINK_WriteReg(R3, 0x00000000)
T1880 000:705.993 - 0.061ms returns 0
T1880 000:706.034 JLINK_WriteReg(R4, 0x00000000)
T1880 000:706.067 - 0.048ms returns 0
T1880 000:706.100 JLINK_WriteReg(R5, 0x00000000)
T1880 000:706.131 - 0.047ms returns 0
T1880 000:706.171 JLINK_WriteReg(R6, 0x00000000)
T1880 000:706.205 - 0.051ms returns 0
T1880 000:706.247 JLINK_WriteReg(R7, 0x00000000)
T1880 000:706.289 - 0.056ms returns 0
T1880 000:706.327 JLINK_WriteReg(R8, 0x00000000)
T1880 000:706.369 - 0.064ms returns 0
T1880 000:706.413 JLINK_WriteReg(R9, 0x20000160)
T1880 000:706.448 - 0.071ms returns 0
T1880 000:706.508 JLINK_WriteReg(R10, 0x00000000)
T1880 000:706.543 - 0.051ms returns 0
T1880 000:706.578 JLINK_WriteReg(R11, 0x00000000)
T1880 000:706.603 - 0.036ms returns 0
T1880 000:706.627 JLINK_WriteReg(R12, 0x00000000)
T1880 000:706.650 - 0.034ms returns 0
T1880 000:706.674 JLINK_WriteReg(R13 (SP), 0x20001000)
T1880 000:706.697 - 0.038ms returns 0
T1880 000:706.728 JLINK_WriteReg(R14, 0x20000001)
T1880 000:706.751 - 0.034ms returns 0
T1880 000:706.775 JLINK_WriteReg(R15 (PC), 0x20000038)
T1880 000:706.798 - 0.034ms returns 0
T1880 000:706.821 JLINK_WriteReg(XPSR, 0x01000000)
T1880 000:706.844 - 0.033ms returns 0
T1880 000:706.868 JLINK_WriteReg(MSP, 0x20001000)
T1880 000:706.890 - 0.033ms returns 0
T1880 000:706.922 JLINK_WriteReg(PSP, 0x20001000)
T1880 000:706.960 - 0.054ms returns 0
T1880 000:706.996 JLINK_WriteReg(CFBP, 0x00000000)
T1880 000:707.024 - 0.039ms returns 0
T1880 000:707.049 JLINK_SetBPEx(Addr = 0x20000000, Type = 0xFFFFFFF2)
T1880 000:707.079   CPU_ReadMem(2 bytes @ 0x20000000)
T1880 000:707.437 - 0.409ms returns 0x00000004
T1880 000:707.476 JLINK_Go()
T1880 000:707.505   CPU_WriteMem(2 bytes @ 0x20000000)
T1880 000:707.930   CPU_ReadMem(4 bytes @ 0xE0001000)
T1880 000:711.266 - 3.808ms
T1880 000:711.303 JLINK_IsHalted()
T1880 000:714.260   CPU_ReadMem(2 bytes @ 0x20000000)
T1880 000:714.865 - 3.578ms returns TRUE
T1880 000:714.904 JLINK_ReadReg(R15 (PC))
T1880 000:714.931 - 0.038ms returns 0x20000000
T1880 000:714.958 JLINK_ClrBPEx(BPHandle = 0x00000004)
T1880 000:714.982 - 0.036ms returns 0x00
T1880 000:715.010 JLINK_ReadReg(R0)
T1880 000:715.034 - 0.034ms returns 0x00000000
T1880 000:715.328 JLINK_WriteMem(0x20000164, 0x400 Bytes, ...)
T1880 000:715.356   Data:  90 66 00 20 45 01 00 08 3D 35 00 08 4F 31 00 08 ...
T1880 000:715.396   CPU_WriteMem(1024 bytes @ 0x20000164)
T1880 000:720.831 - 5.522ms returns 0x400
T1880 000:720.867 JLINK_HasError()
T1880 000:720.893 JLINK_WriteReg(R0, 0x08000000)
T1880 000:720.919 - 0.037ms returns 0
T1880 000:720.944 JLINK_WriteReg(R1, 0x00000400)
T1880 000:720.969 - 0.036ms returns 0
T1880 000:720.994 JLINK_WriteReg(R2, 0x20000164)
T1880 000:721.017 - 0.035ms returns 0
T1880 000:721.042 JLINK_WriteReg(R3, 0x00000000)
T1880 000:721.066 - 0.035ms returns 0
T1880 000:721.090 JLINK_WriteReg(R4, 0x00000000)
T1880 000:721.114 - 0.034ms returns 0
T1880 000:721.138 JLINK_WriteReg(R5, 0x00000000)
T1880 000:721.162 - 0.034ms returns 0
T1880 000:721.186 JLINK_WriteReg(R6, 0x00000000)
T1880 000:721.210 - 0.034ms returns 0
T1880 000:721.234 JLINK_WriteReg(R7, 0x00000000)
T1880 000:721.257 - 0.034ms returns 0
T1880 000:721.282 JLINK_WriteReg(R8, 0x00000000)
T1880 000:721.305 - 0.035ms returns 0
T1880 000:721.330 JLINK_WriteReg(R9, 0x20000160)
T1880 000:721.353 - 0.035ms returns 0
T1880 000:721.378 JLINK_WriteReg(R10, 0x00000000)
T1880 000:721.401 - 0.034ms returns 0
T1880 000:721.426 JLINK_WriteReg(R11, 0x00000000)
T1880 000:721.449 - 0.035ms returns 0
T1880 000:721.474 JLINK_WriteReg(R12, 0x00000000)
T1880 000:721.497 - 0.034ms returns 0
T1880 000:721.521 JLINK_WriteReg(R13 (SP), 0x20001000)
T1880 000:721.546 - 0.035ms returns 0
T1880 000:721.570 JLINK_WriteReg(R14, 0x20000001)
T1880 000:721.593 - 0.034ms returns 0
T1880 000:721.618 JLINK_WriteReg(R15 (PC), 0x200000F4)
T1880 000:721.641 - 0.034ms returns 0
T1880 000:721.665 JLINK_WriteReg(XPSR, 0x01000000)
T1880 000:721.701 - 0.057ms returns 0
T1880 000:721.738 JLINK_WriteReg(MSP, 0x20001000)
T1880 000:721.763 - 0.035ms returns 0
T1880 000:721.787 JLINK_WriteReg(PSP, 0x20001000)
T1880 000:721.810 - 0.034ms returns 0
T1880 000:721.834 JLINK_WriteReg(CFBP, 0x00000000)
T1880 000:721.856 - 0.033ms returns 0
T1880 000:721.880 JLINK_SetBPEx(Addr = 0x20000000, Type = 0xFFFFFFF2)
T1880 000:721.904 - 0.035ms returns 0x00000005
T1880 000:721.929 JLINK_Go()
T1880 000:721.959   CPU_ReadMem(4 bytes @ 0xE0001000)
T1880 000:724.867 - 2.977ms
T1880 000:724.925 JLINK_IsHalted()
T1880 000:725.349 - 0.441ms returns FALSE
T1880 000:725.382 JLINK_HasError()
T1880 000:730.239 JLINK_IsHalted()
T1880 000:730.815 - 0.594ms returns FALSE
T1880 000:730.848 JLINK_HasError()
T1880 000:732.196 JLINK_IsHalted()
T1880 000:732.799 - 0.620ms returns FALSE
T1880 000:732.832 JLINK_HasError()
T1880 000:734.220 JLINK_IsHalted()
T1880 000:734.788 - 0.585ms returns FALSE
T1880 000:734.821 JLINK_HasError()
T1880 000:736.187 JLINK_IsHalted()
T1880 000:736.599 - 0.429ms returns FALSE
T1880 000:736.632 JLINK_HasError()
T1880 000:740.966 JLINK_IsHalted()
T1880 000:741.323 - 0.373ms returns FALSE
T1880 000:741.358 JLINK_HasError()
T1880 000:742.940 JLINK_IsHalted()
T1880 000:743.347 - 0.422ms returns FALSE
T1880 000:743.378 JLINK_HasError()
T1880 000:745.149 JLINK_IsHalted()
T1880 000:745.460 - 0.328ms returns FALSE
T1880 000:745.493 JLINK_HasError()
T1880 000:746.932 JLINK_IsHalted()
T1880 000:747.281 - 0.366ms returns FALSE
T1880 000:747.315 JLINK_HasError()
T1880 000:748.936 JLINK_IsHalted()
T1880 000:749.314 - 0.395ms returns FALSE
T1880 000:749.351 JLINK_HasError()
T1880 000:751.151 JLINK_IsHalted()
T1880 000:751.844 - 0.729ms returns FALSE
T1880 000:751.903 JLINK_HasError()
T1880 000:758.092 JLINK_IsHalted()
T1880 000:760.929   CPU_ReadMem(2 bytes @ 0x20000000)
T1880 000:761.272 - 3.195ms returns TRUE
T1880 000:761.304 JLINK_ReadReg(R15 (PC))
T1880 000:761.329 - 0.037ms returns 0x20000000
T1880 000:761.355 JLINK_ClrBPEx(BPHandle = 0x00000005)
T1880 000:761.379 - 0.036ms returns 0x00
T1880 000:761.404 JLINK_ReadReg(R0)
T1880 000:761.428 - 0.035ms returns 0x00000000
T1880 000:761.907 JLINK_WriteMem(0x20000164, 0x400 Bytes, ...)
T1880 000:761.936   Data:  3B FA 06 46 0D 46 50 46 59 46 01 9A 00 F0 43 FA ...
T1880 000:761.975   CPU_WriteMem(1024 bytes @ 0x20000164)
T1880 000:767.424 - 5.551ms returns 0x400
T1880 000:767.481 JLINK_HasError()
T1880 000:767.509 JLINK_WriteReg(R0, 0x08000400)
T1880 000:767.538 - 0.041ms returns 0
T1880 000:767.565 JLINK_WriteReg(R1, 0x00000400)
T1880 000:767.589 - 0.037ms returns 0
T1880 000:767.618 JLINK_WriteReg(R2, 0x20000164)
T1880 000:767.647 - 0.043ms returns 0
T1880 000:767.680 JLINK_WriteReg(R3, 0x00000000)
T1880 000:767.719 - 0.054ms returns 0
T1880 000:767.756 JLINK_WriteReg(R4, 0x00000000)
T1880 000:767.793 - 0.049ms returns 0
T1880 000:767.824 JLINK_WriteReg(R5, 0x00000000)
T1880 000:767.854 - 0.053ms returns 0
T1880 000:767.902 JLINK_WriteReg(R6, 0x00000000)
T1880 000:767.929 - 0.039ms returns 0
T1880 000:767.958 JLINK_WriteReg(R7, 0x00000000)
T1880 000:768.001 - 0.064ms returns 0
T1880 000:768.039 JLINK_WriteReg(R8, 0x00000000)
T1880 000:768.064 - 0.035ms returns 0
T1880 000:768.089 JLINK_WriteReg(R9, 0x20000160)
T1880 000:768.112 - 0.033ms returns 0
T1880 000:768.137 JLINK_WriteReg(R10, 0x00000000)
T1880 000:768.160 - 0.034ms returns 0
T1880 000:768.185 JLINK_WriteReg(R11, 0x00000000)
T1880 000:768.207 - 0.033ms returns 0
T1880 000:768.233 JLINK_WriteReg(R12, 0x00000000)
T1880 000:768.259 - 0.037ms returns 0
T1880 000:768.285 JLINK_WriteReg(R13 (SP), 0x20001000)
T1880 000:768.309 - 0.035ms returns 0
T1880 000:768.334 JLINK_WriteReg(R14, 0x20000001)
T1880 000:768.368 - 0.045ms returns 0
T1880 000:768.395 JLINK_WriteReg(R15 (PC), 0x200000F4)
T1880 000:768.418 - 0.034ms returns 0
T1880 000:768.445 JLINK_WriteReg(XPSR, 0x01000000)
T1880 000:768.477 - 0.044ms returns 0
T1880 000:768.503 JLINK_WriteReg(MSP, 0x20001000)
T1880 000:768.526 - 0.034ms returns 0
T1880 000:768.560 JLINK_WriteReg(PSP, 0x20001000)
T1880 000:768.595 - 0.049ms returns 0
T1880 000:768.628 JLINK_WriteReg(CFBP, 0x00000000)
T1880 000:768.659 - 0.042ms returns 0
T1880 000:768.689 JLINK_SetBPEx(Addr = 0x20000000, Type = 0xFFFFFFF2)
T1880 000:768.721 - 0.043ms returns 0x00000006
T1880 000:768.750 JLINK_Go()
T1880 000:768.791   CPU_ReadMem(4 bytes @ 0xE0001000)
T1880 000:771.557 - 2.825ms
T1880 000:771.594 JLINK_IsHalted()
T1880 000:771.952 - 0.375ms returns FALSE
T1880 000:771.987 JLINK_HasError()
T1880 000:775.136 JLINK_IsHalted()
T1880 000:775.604 - 0.485ms returns FALSE
T1880 000:775.637 JLINK_HasError()
T1880 000:777.252 JLINK_IsHalted()
T1880 000:777.731 - 0.500ms returns FALSE
T1880 000:777.768 JLINK_HasError()
T1880 000:779.292 JLINK_IsHalted()
T1880 000:780.052 - 0.793ms returns FALSE
T1880 000:780.104 JLINK_HasError()
T1880 000:781.294 JLINK_IsHalted()
T1880 000:782.039 - 0.778ms returns FALSE
T1880 000:782.092 JLINK_HasError()
T1880 000:783.309 JLINK_IsHalted()
T1880 000:783.804 - 0.532ms returns FALSE
T1880 000:783.865 JLINK_HasError()
T1880 000:789.052 JLINK_IsHalted()
T1880 000:789.552 - 0.516ms returns FALSE
T1880 000:789.584 JLINK_HasError()
T1880 000:791.050 JLINK_IsHalted()
T1880 000:791.613 - 0.579ms returns FALSE
T1880 000:791.644 JLINK_HasError()
T1880 000:793.038 JLINK_IsHalted()
T1880 000:793.542 - 0.520ms returns FALSE
T1880 000:793.573 JLINK_HasError()
T1880 000:795.031 JLINK_IsHalted()
T1880 000:795.470 - 0.455ms returns FALSE
T1880 000:795.501 JLINK_HasError()
T1880 000:797.020 JLINK_IsHalted()
T1880 000:797.606 - 0.602ms returns FALSE
T1880 000:797.641 JLINK_HasError()
T1880 000:799.225 JLINK_IsHalted()
T1880 000:799.599 - 0.395ms returns FALSE
T1880 000:799.639 JLINK_HasError()
T1880 000:803.979 JLINK_IsHalted()
T1880 000:806.710   CPU_ReadMem(2 bytes @ 0x20000000)
T1880 000:807.140 - 3.179ms returns TRUE
T1880 000:807.175 JLINK_ReadReg(R15 (PC))
T1880 000:807.201 - 0.038ms returns 0x20000000
T1880 000:807.226 JLINK_ClrBPEx(BPHandle = 0x00000006)
T1880 000:807.250 - 0.035ms returns 0x00
T1880 000:807.275 JLINK_ReadReg(R0)
T1880 000:807.299 - 0.035ms returns 0x00000000
T1880 000:807.757 JLINK_WriteMem(0x20000164, 0x400 Bytes, ...)
T1880 000:807.786   Data:  60 72 C1 F3 13 01 00 2A 02 DC 30 BC 00 20 70 47 ...
T1880 000:807.829   CPU_WriteMem(1024 bytes @ 0x20000164)
T1880 000:813.372 - 5.648ms returns 0x400
T1880 000:813.424 JLINK_HasError()
T1880 000:813.451 JLINK_WriteReg(R0, 0x08000800)
T1880 000:813.479 - 0.040ms returns 0
T1880 000:813.505 JLINK_WriteReg(R1, 0x00000400)
T1880 000:813.529 - 0.035ms returns 0
T1880 000:813.553 JLINK_WriteReg(R2, 0x20000164)
T1880 000:813.577 - 0.035ms returns 0
T1880 000:813.601 JLINK_WriteReg(R3, 0x00000000)
T1880 000:813.625 - 0.034ms returns 0
T1880 000:813.649 JLINK_WriteReg(R4, 0x00000000)
T1880 000:813.673 - 0.034ms returns 0
T1880 000:813.697 JLINK_WriteReg(R5, 0x00000000)
T1880 000:813.721 - 0.034ms returns 0
T1880 000:813.745 JLINK_WriteReg(R6, 0x00000000)
T1880 000:813.769 - 0.034ms returns 0
T1880 000:813.793 JLINK_WriteReg(R7, 0x00000000)
T1880 000:813.817 - 0.035ms returns 0
T1880 000:813.841 JLINK_WriteReg(R8, 0x00000000)
T1880 000:813.865 - 0.035ms returns 0
T1880 000:813.890 JLINK_WriteReg(R9, 0x20000160)
T1880 000:813.913 - 0.034ms returns 0
T1880 000:813.937 JLINK_WriteReg(R10, 0x00000000)
T1880 000:813.961 - 0.034ms returns 0
T1880 000:813.985 JLINK_WriteReg(R11, 0x00000000)
T1880 000:814.009 - 0.034ms returns 0
T1880 000:814.035 JLINK_WriteReg(R12, 0x00000000)
T1880 000:814.059 - 0.034ms returns 0
T1880 000:814.083 JLINK_WriteReg(R13 (SP), 0x20001000)
T1880 000:814.106 - 0.034ms returns 0
T1880 000:814.130 JLINK_WriteReg(R14, 0x20000001)
T1880 000:814.153 - 0.033ms returns 0
T1880 000:814.177 JLINK_WriteReg(R15 (PC), 0x200000F4)
T1880 000:814.200 - 0.034ms returns 0
T1880 000:814.224 JLINK_WriteReg(XPSR, 0x01000000)
T1880 000:814.247 - 0.033ms returns 0
T1880 000:814.270 JLINK_WriteReg(MSP, 0x20001000)
T1880 000:814.293 - 0.033ms returns 0
T1880 000:814.317 JLINK_WriteReg(PSP, 0x20001000)
T1880 000:814.339 - 0.033ms returns 0
T1880 000:814.363 JLINK_WriteReg(CFBP, 0x00000000)
T1880 000:814.386 - 0.033ms returns 0
T1880 000:814.410 JLINK_SetBPEx(Addr = 0x20000000, Type = 0xFFFFFFF2)
T1880 000:814.434 - 0.035ms returns 0x00000007
T1880 000:814.458 JLINK_Go()
T1880 000:814.488   CPU_ReadMem(4 bytes @ 0xE0001000)
T1880 000:817.498 - 3.072ms
T1880 000:817.548 JLINK_IsHalted()
T1880 000:817.894 - 0.362ms returns FALSE
T1880 000:817.926 JLINK_HasError()
T1880 000:821.015 JLINK_IsHalted()
T1880 000:821.422 - 0.423ms returns FALSE
T1880 000:821.454 JLINK_HasError()
T1880 000:823.015 JLINK_IsHalted()
T1880 000:823.405 - 0.407ms returns FALSE
T1880 000:823.441 JLINK_HasError()
T1880 000:825.252 JLINK_IsHalted()
T1880 000:825.922 - 0.702ms returns FALSE
T1880 000:825.976 JLINK_HasError()
T1880 000:827.241 JLINK_IsHalted()
T1880 000:827.926 - 0.718ms returns FALSE
T1880 000:827.979 JLINK_HasError()
T1880 000:829.248 JLINK_IsHalted()
T1880 000:829.933 - 0.719ms returns FALSE
T1880 000:829.986 JLINK_HasError()
T1880 000:831.237 JLINK_IsHalted()
T1880 000:831.647 - 0.451ms returns FALSE
T1880 000:831.715 JLINK_HasError()
T1880 000:836.974 JLINK_IsHalted()
T1880 000:837.398 - 0.441ms returns FALSE
T1880 000:837.431 JLINK_HasError()
T1880 000:839.125 JLINK_IsHalted()
T1880 000:839.434 - 0.326ms returns FALSE
T1880 000:839.468 JLINK_HasError()
T1880 000:840.994 JLINK_IsHalted()
T1880 000:841.380 - 0.403ms returns FALSE
T1880 000:841.414 JLINK_HasError()
T1880 000:843.135 JLINK_IsHalted()
T1880 000:843.482 - 0.365ms returns FALSE
T1880 000:843.516 JLINK_HasError()
T1880 000:845.138 JLINK_IsHalted()
T1880 000:845.480 - 0.359ms returns FALSE
T1880 000:845.513 JLINK_HasError()
T1880 000:847.164 JLINK_IsHalted()
T1880 000:847.524 - 0.377ms returns FALSE
T1880 000:847.557 JLINK_HasError()
T1880 000:851.975 JLINK_IsHalted()
T1880 000:854.795   CPU_ReadMem(2 bytes @ 0x20000000)
T1880 000:855.143 - 3.185ms returns TRUE
T1880 000:855.177 JLINK_ReadReg(R15 (PC))
T1880 000:855.203 - 0.038ms returns 0x20000000
T1880 000:855.229 JLINK_ClrBPEx(BPHandle = 0x00000007)
T1880 000:855.253 - 0.035ms returns 0x00
T1880 000:855.278 JLINK_ReadReg(R0)
T1880 000:855.302 - 0.035ms returns 0x00000000
T1880 000:855.754 JLINK_WriteMem(0x20000164, 0x400 Bytes, ...)
T1880 000:855.782   Data:  06 F1 01 27 01 EB 10 46 1F FA 80 F8 B6 F5 80 3F ...
T1880 000:855.822   CPU_WriteMem(1024 bytes @ 0x20000164)
T1880 000:861.156 - 5.421ms returns 0x400
T1880 000:861.191 JLINK_HasError()
T1880 000:861.217 JLINK_WriteReg(R0, 0x08000C00)
T1880 000:861.243 - 0.037ms returns 0
T1880 000:861.268 JLINK_WriteReg(R1, 0x00000400)
T1880 000:861.292 - 0.035ms returns 0
T1880 000:861.316 JLINK_WriteReg(R2, 0x20000164)
T1880 000:861.340 - 0.035ms returns 0
T1880 000:861.364 JLINK_WriteReg(R3, 0x00000000)
T1880 000:861.388 - 0.034ms returns 0
T1880 000:861.412 JLINK_WriteReg(R4, 0x00000000)
T1880 000:861.436 - 0.034ms returns 0
T1880 000:861.460 JLINK_WriteReg(R5, 0x00000000)
T1880 000:861.484 - 0.034ms returns 0
T1880 000:861.508 JLINK_WriteReg(R6, 0x00000000)
T1880 000:861.531 - 0.034ms returns 0
T1880 000:861.556 JLINK_WriteReg(R7, 0x00000000)
T1880 000:861.579 - 0.034ms returns 0
T1880 000:861.603 JLINK_WriteReg(R8, 0x00000000)
T1880 000:861.627 - 0.034ms returns 0
T1880 000:861.651 JLINK_WriteReg(R9, 0x20000160)
T1880 000:861.674 - 0.034ms returns 0
T1880 000:861.699 JLINK_WriteReg(R10, 0x00000000)
T1880 000:861.722 - 0.034ms returns 0
T1880 000:861.747 JLINK_WriteReg(R11, 0x00000000)
T1880 000:861.770 - 0.034ms returns 0
T1880 000:861.795 JLINK_WriteReg(R12, 0x00000000)
T1880 000:861.818 - 0.034ms returns 0
T1880 000:861.842 JLINK_WriteReg(R13 (SP), 0x20001000)
T1880 000:861.868 - 0.036ms returns 0
T1880 000:861.892 JLINK_WriteReg(R14, 0x20000001)
T1880 000:861.915 - 0.035ms returns 0
T1880 000:861.940 JLINK_WriteReg(R15 (PC), 0x200000F4)
T1880 000:861.963 - 0.034ms returns 0
T1880 000:861.988 JLINK_WriteReg(XPSR, 0x01000000)
T1880 000:862.011 - 0.034ms returns 0
T1880 000:862.035 JLINK_WriteReg(MSP, 0x20001000)
T1880 000:862.058 - 0.034ms returns 0
T1880 000:862.083 JLINK_WriteReg(PSP, 0x20001000)
T1880 000:862.106 - 0.034ms returns 0
T1880 000:862.130 JLINK_WriteReg(CFBP, 0x00000000)
T1880 000:862.153 - 0.034ms returns 0
T1880 000:862.178 JLINK_SetBPEx(Addr = 0x20000000, Type = 0xFFFFFFF2)
T1880 000:862.202 - 0.035ms returns 0x00000008
T1880 000:862.227 JLINK_Go()
T1880 000:862.256   CPU_ReadMem(4 bytes @ 0xE0001000)
T1880 000:865.323 - 3.126ms
T1880 000:865.370 JLINK_IsHalted()
T1880 000:865.646 - 0.291ms returns FALSE
T1880 000:865.677 JLINK_HasError()
T1880 000:868.885 JLINK_IsHalted()
T1880 000:869.321 - 0.452ms returns FALSE
T1880 000:869.352 JLINK_HasError()
T1880 000:871.044 JLINK_IsHalted()
T1880 000:871.356 - 0.329ms returns FALSE
T1880 000:871.390 JLINK_HasError()
T1880 000:873.063 JLINK_IsHalted()
T1880 000:873.382 - 0.336ms returns FALSE
T1880 000:873.416 JLINK_HasError()
T1880 000:875.085 JLINK_IsHalted()
T1880 000:875.430 - 0.362ms returns FALSE
T1880 000:875.465 JLINK_HasError()
T1880 000:877.052 JLINK_IsHalted()
T1880 000:877.412 - 0.376ms returns FALSE
T1880 000:877.445 JLINK_HasError()
T1880 000:879.078 JLINK_IsHalted()
T1880 000:879.401 - 0.350ms returns FALSE
T1880 000:879.453 JLINK_HasError()
T1880 000:884.847 JLINK_IsHalted()
T1880 000:885.322 - 0.492ms returns FALSE
T1880 000:885.355 JLINK_HasError()
T1880 000:886.930 JLINK_IsHalted()
T1880 000:887.256 - 0.344ms returns FALSE
T1880 000:887.290 JLINK_HasError()
T1880 000:888.993 JLINK_IsHalted()
T1880 000:889.356 - 0.380ms returns FALSE
T1880 000:889.389 JLINK_HasError()
T1880 000:890.920 JLINK_IsHalted()
T1880 000:891.282 - 0.379ms returns FALSE
T1880 000:891.315 JLINK_HasError()
T1880 000:893.010 JLINK_IsHalted()
T1880 000:893.381 - 0.389ms returns FALSE
T1880 000:893.414 JLINK_HasError()
T1880 000:894.841 JLINK_IsHalted()
T1880 000:895.194 - 0.370ms returns FALSE
T1880 000:895.227 JLINK_HasError()
T1880 000:899.813 JLINK_IsHalted()
T1880 000:902.625   CPU_ReadMem(2 bytes @ 0x20000000)
T1880 000:903.194 - 3.428ms returns TRUE
T1880 000:903.277 JLINK_ReadReg(R15 (PC))
T1880 000:903.325 - 0.068ms returns 0x20000000
T1880 000:903.370 JLINK_ClrBPEx(BPHandle = 0x00000008)
T1880 000:903.412 - 0.061ms returns 0x00
T1880 000:903.466 JLINK_ReadReg(R0)
T1880 000:903.507 - 0.060ms returns 0x00000000
T1880 000:904.330 JLINK_WriteMem(0x20000164, 0x400 Bytes, ...)
T1880 000:904.387   Data:  DD E9 02 23 FF F7 DF FA 05 46 FF F7 EF FB 66 49 ...
T1880 000:904.458   CPU_WriteMem(1024 bytes @ 0x20000164)
T1880 000:909.991 - 5.709ms returns 0x400
T1880 000:910.069 JLINK_HasError()
T1880 000:910.114 JLINK_WriteReg(R0, 0x08001000)
T1880 000:910.161 - 0.067ms returns 0
T1880 000:910.204 JLINK_WriteReg(R1, 0x00000400)
T1880 000:910.245 - 0.060ms returns 0
T1880 000:910.286 JLINK_WriteReg(R2, 0x20000164)
T1880 000:910.326 - 0.059ms returns 0
T1880 000:910.368 JLINK_WriteReg(R3, 0x00000000)
T1880 000:910.408 - 0.059ms returns 0
T1880 000:910.449 JLINK_WriteReg(R4, 0x00000000)
T1880 000:910.489 - 0.059ms returns 0
T1880 000:910.530 JLINK_WriteReg(R5, 0x00000000)
T1880 000:910.570 - 0.059ms returns 0
T1880 000:910.612 JLINK_WriteReg(R6, 0x00000000)
T1880 000:910.651 - 0.058ms returns 0
T1880 000:910.693 JLINK_WriteReg(R7, 0x00000000)
T1880 000:910.732 - 0.059ms returns 0
T1880 000:910.777 JLINK_WriteReg(R8, 0x00000000)
T1880 000:910.850 - 0.110ms returns 0
T1880 000:910.929 JLINK_WriteReg(R9, 0x20000160)
T1880 000:910.999 - 0.103ms returns 0
T1880 000:911.074 JLINK_WriteReg(R10, 0x00000000)
T1880 000:911.130 - 0.081ms returns 0
T1880 000:911.197 JLINK_WriteReg(R11, 0x00000000)
T1880 000:911.270 - 0.095ms returns 0
T1880 000:911.330 JLINK_WriteReg(R12, 0x00000000)
T1880 000:911.374 - 0.063ms returns 0
T1880 000:911.415 JLINK_WriteReg(R13 (SP), 0x20001000)
T1880 000:911.455 - 0.059ms returns 0
T1880 000:911.495 JLINK_WriteReg(R14, 0x20000001)
T1880 000:911.534 - 0.057ms returns 0
T1880 000:911.574 JLINK_WriteReg(R15 (PC), 0x200000F4)
T1880 000:911.613 - 0.057ms returns 0
T1880 000:911.654 JLINK_WriteReg(XPSR, 0x01000000)
T1880 000:911.714 - 0.089ms returns 0
T1880 000:911.787 JLINK_WriteReg(MSP, 0x20001000)
T1880 000:911.841 - 0.086ms returns 0
T1880 000:911.911 JLINK_WriteReg(PSP, 0x20001000)
T1880 000:911.953 - 0.062ms returns 0
T1880 000:911.995 JLINK_WriteReg(CFBP, 0x00000000)
T1880 000:912.033 - 0.057ms returns 0
T1880 000:912.074 JLINK_SetBPEx(Addr = 0x20000000, Type = 0xFFFFFFF2)
T1880 000:912.116 - 0.061ms returns 0x00000009
T1880 000:912.157 JLINK_Go()
T1880 000:912.210   CPU_ReadMem(4 bytes @ 0xE0001000)
T1880 000:915.167 - 3.032ms
T1880 000:915.207 JLINK_IsHalted()
T1880 000:915.549 - 0.359ms returns FALSE
T1880 000:915.583 JLINK_HasError()
T1880 000:918.933 JLINK_IsHalted()
T1880 000:919.280 - 0.364ms returns FALSE
T1880 000:919.313 JLINK_HasError()
T1880 000:921.000 JLINK_IsHalted()
T1880 000:921.759 - 0.792ms returns FALSE
T1880 000:921.863 JLINK_HasError()
T1880 000:923.762 JLINK_IsHalted()
T1880 000:924.205 - 0.461ms returns FALSE
T1880 000:924.240 JLINK_HasError()
T1880 000:925.979 JLINK_IsHalted()
T1880 000:926.397 - 0.440ms returns FALSE
T1880 000:926.438 JLINK_HasError()
T1880 000:931.684 JLINK_IsHalted()
T1880 000:932.010 - 0.343ms returns FALSE
T1880 000:932.043 JLINK_HasError()
T1880 000:933.749 JLINK_IsHalted()
T1880 000:934.137 - 0.406ms returns FALSE
T1880 000:934.171 JLINK_HasError()
T1880 000:935.731 JLINK_IsHalted()
T1880 000:936.100 - 0.386ms returns FALSE
T1880 000:936.133 JLINK_HasError()
T1880 000:937.918 JLINK_IsHalted()
T1880 000:938.599 - 0.713ms returns FALSE
T1880 000:938.651 JLINK_HasError()
T1880 000:939.837 JLINK_IsHalted()
T1880 000:940.275 - 0.467ms returns FALSE
T1880 000:940.325 JLINK_HasError()
T1880 000:941.940 JLINK_IsHalted()
T1880 000:942.379 - 0.487ms returns FALSE
T1880 000:942.448 JLINK_HasError()
T1880 000:946.682 JLINK_IsHalted()
T1880 000:949.600   CPU_ReadMem(2 bytes @ 0x20000000)
T1880 000:950.012 - 3.364ms returns TRUE
T1880 000:950.078 JLINK_ReadReg(R15 (PC))
T1880 000:950.130 - 0.074ms returns 0x20000000
T1880 000:950.179 JLINK_ClrBPEx(BPHandle = 0x00000009)
T1880 000:950.226 - 0.069ms returns 0x00
T1880 000:950.275 JLINK_ReadReg(R0)
T1880 000:950.321 - 0.068ms returns 0x00000000
T1880 000:951.168 JLINK_WriteMem(0x20000164, 0x400 Bytes, ...)
T1880 000:951.225   Data:  4A 48 01 68 40 48 00 68 FF F7 0C FA 03 D2 47 48 ...
T1880 000:951.301   CPU_WriteMem(1024 bytes @ 0x20000164)
T1880 000:956.777 - 5.661ms returns 0x400
T1880 000:956.872 JLINK_HasError()
T1880 000:956.930 JLINK_WriteReg(R0, 0x08001400)
T1880 000:956.987 - 0.081ms returns 0
T1880 000:957.042 JLINK_WriteReg(R1, 0x00000400)
T1880 000:957.091 - 0.074ms returns 0
T1880 000:957.164 JLINK_WriteReg(R2, 0x20000164)
T1880 000:957.233 - 0.102ms returns 0
T1880 000:957.305 JLINK_WriteReg(R3, 0x00000000)
T1880 000:957.372 - 0.100ms returns 0
T1880 000:957.445 JLINK_WriteReg(R4, 0x00000000)
T1880 000:957.513 - 0.101ms returns 0
T1880 000:957.590 JLINK_WriteReg(R5, 0x00000000)
T1880 000:957.653 - 0.090ms returns 0
T1880 000:957.725 JLINK_WriteReg(R6, 0x00000000)
T1880 000:957.817 - 0.136ms returns 0
T1880 000:957.909 JLINK_WriteReg(R7, 0x00000000)
T1880 000:957.998 - 0.135ms returns 0
T1880 000:958.101 JLINK_WriteReg(R8, 0x00000000)
T1880 000:958.202 - 0.153ms returns 0
T1880 000:958.320 JLINK_WriteReg(R9, 0x20000160)
T1880 000:958.409 - 0.121ms returns 0
T1880 000:958.573 JLINK_WriteReg(R10, 0x00000000)
T1880 000:958.642 - 0.101ms returns 0
T1880 000:958.711 JLINK_WriteReg(R11, 0x00000000)
T1880 000:958.759 - 0.071ms returns 0
T1880 000:958.812 JLINK_WriteReg(R12, 0x00000000)
T1880 000:958.888 - 0.100ms returns 0
T1880 000:958.946 JLINK_WriteReg(R13 (SP), 0x20001000)
T1880 000:959.020 - 0.114ms returns 0
T1880 000:959.121 JLINK_WriteReg(R14, 0x20000001)
T1880 000:959.212 - 0.141ms returns 0
T1880 000:959.320 JLINK_WriteReg(R15 (PC), 0x200000F4)
T1880 000:959.409 - 0.122ms returns 0
T1880 000:959.483 JLINK_WriteReg(XPSR, 0x01000000)
T1880 000:959.549 - 0.097ms returns 0
T1880 000:959.623 JLINK_WriteReg(MSP, 0x20001000)
T1880 000:959.689 - 0.098ms returns 0
T1880 000:959.765 JLINK_WriteReg(PSP, 0x20001000)
T1880 000:959.817 - 0.075ms returns 0
T1880 000:959.869 JLINK_WriteReg(CFBP, 0x00000000)
T1880 000:959.917 - 0.070ms returns 0
T1880 000:959.969 JLINK_SetBPEx(Addr = 0x20000000, Type = 0xFFFFFFF2)
T1880 000:960.033 - 0.096ms returns 0x0000000A
T1880 000:960.114 JLINK_Go()
T1880 000:960.211   CPU_ReadMem(4 bytes @ 0xE0001000)
T1880 000:963.508 - 3.434ms
T1880 000:963.586 JLINK_IsHalted()
T1880 000:964.067 - 0.518ms returns FALSE
T1880 000:964.143 JLINK_HasError()
T1880 000:967.611 JLINK_IsHalted()
T1880 000:967.922 - 0.327ms returns FALSE
T1880 000:967.953 JLINK_HasError()
T1880 000:969.605 JLINK_IsHalted()
T1880 000:969.919 - 0.329ms returns FALSE
T1880 000:969.951 JLINK_HasError()
T1880 000:971.599 JLINK_IsHalted()
T1880 000:971.902 - 0.318ms returns FALSE
T1880 000:971.984 JLINK_HasError()
T1880 000:973.579 JLINK_IsHalted()
T1880 000:973.941 - 0.381ms returns FALSE
T1880 000:973.977 JLINK_HasError()
T1880 000:976.566 JLINK_IsHalted()
T1880 000:976.903 - 0.355ms returns FALSE
T1880 000:976.937 JLINK_HasError()
T1880 000:978.593 JLINK_IsHalted()
T1880 000:978.946 - 0.371ms returns FALSE
T1880 000:978.980 JLINK_HasError()
T1880 000:980.584 JLINK_IsHalted()
T1880 000:980.909 - 0.342ms returns FALSE
T1880 000:980.943 JLINK_HasError()
T1880 000:982.603 JLINK_IsHalted()
T1880 000:982.951 - 0.365ms returns FALSE
T1880 000:982.986 JLINK_HasError()
T1880 000:984.600 JLINK_IsHalted()
T1880 000:984.946 - 0.363ms returns FALSE
T1880 000:984.981 JLINK_HasError()
T1880 000:986.596 JLINK_IsHalted()
T1880 000:986.940 - 0.362ms returns FALSE
T1880 000:986.975 JLINK_HasError()
T1880 000:988.532 JLINK_IsHalted()
T1880 000:988.881 - 0.367ms returns FALSE
T1880 000:988.920 JLINK_HasError()
T1880 000:994.514 JLINK_IsHalted()
T1880 000:997.132   CPU_ReadMem(2 bytes @ 0x20000000)
T1880 000:997.460 - 2.964ms returns TRUE
T1880 000:997.494 JLINK_ReadReg(R15 (PC))
T1880 000:997.523 - 0.040ms returns 0x20000000
T1880 000:997.548 JLINK_ClrBPEx(BPHandle = 0x0000000A)
T1880 000:997.572 - 0.035ms returns 0x00
T1880 000:997.597 JLINK_ReadReg(R0)
T1880 000:997.621 - 0.035ms returns 0x00000000
T1880 000:998.068 JLINK_WriteMem(0x20000164, 0x400 Bytes, ...)
T1880 000:998.097   Data:  80 15 39 E0 4F 49 3C 39 20 68 88 42 01 D1 80 14 ...
T1880 000:998.138   CPU_WriteMem(1024 bytes @ 0x20000164)
T1880 001:003.454 - 5.414ms returns 0x400
T1880 001:003.510 JLINK_HasError()
T1880 001:003.539 JLINK_WriteReg(R0, 0x08001800)
T1880 001:003.566 - 0.038ms returns 0
T1880 001:003.591 JLINK_WriteReg(R1, 0x00000400)
T1880 001:003.614 - 0.034ms returns 0
T1880 001:003.638 JLINK_WriteReg(R2, 0x20000164)
T1880 001:003.661 - 0.035ms returns 0
T1880 001:003.686 JLINK_WriteReg(R3, 0x00000000)
T1880 001:003.709 - 0.034ms returns 0
T1880 001:003.733 JLINK_WriteReg(R4, 0x00000000)
T1880 001:003.755 - 0.033ms returns 0
T1880 001:003.780 JLINK_WriteReg(R5, 0x00000000)
T1880 001:003.803 - 0.034ms returns 0
T1880 001:003.827 JLINK_WriteReg(R6, 0x00000000)
T1880 001:003.849 - 0.033ms returns 0
T1880 001:003.874 JLINK_WriteReg(R7, 0x00000000)
T1880 001:003.896 - 0.033ms returns 0
T1880 001:003.920 JLINK_WriteReg(R8, 0x00000000)
T1880 001:003.943 - 0.033ms returns 0
T1880 001:003.968 JLINK_WriteReg(R9, 0x20000160)
T1880 001:003.990 - 0.033ms returns 0
T1880 001:004.014 JLINK_WriteReg(R10, 0x00000000)
T1880 001:004.037 - 0.033ms returns 0
T1880 001:004.061 JLINK_WriteReg(R11, 0x00000000)
T1880 001:004.084 - 0.034ms returns 0
T1880 001:004.108 JLINK_WriteReg(R12, 0x00000000)
T1880 001:004.131 - 0.034ms returns 0
T1880 001:004.155 JLINK_WriteReg(R13 (SP), 0x20001000)
T1880 001:004.179 - 0.035ms returns 0
T1880 001:004.203 JLINK_WriteReg(R14, 0x20000001)
T1880 001:004.225 - 0.033ms returns 0
T1880 001:004.249 JLINK_WriteReg(R15 (PC), 0x200000F4)
T1880 001:004.272 - 0.034ms returns 0
T1880 001:004.297 JLINK_WriteReg(XPSR, 0x01000000)
T1880 001:004.321 - 0.035ms returns 0
T1880 001:004.346 JLINK_WriteReg(MSP, 0x20001000)
T1880 001:004.371 - 0.037ms returns 0
T1880 001:004.396 JLINK_WriteReg(PSP, 0x20001000)
T1880 001:004.419 - 0.034ms returns 0
T1880 001:004.443 JLINK_WriteReg(CFBP, 0x00000000)
T1880 001:004.466 - 0.035ms returns 0
T1880 001:004.492 JLINK_SetBPEx(Addr = 0x20000000, Type = 0xFFFFFFF2)
T1880 001:004.516 - 0.036ms returns 0x0000000B
T1880 001:004.541 JLINK_Go()
T1880 001:004.571   CPU_ReadMem(4 bytes @ 0xE0001000)
T1880 001:007.320 - 2.797ms
T1880 001:007.355 JLINK_IsHalted()
T1880 001:007.663 - 0.323ms returns FALSE
T1880 001:007.694 JLINK_HasError()
T1880 001:010.470 JLINK_IsHalted()
T1880 001:010.748 - 0.294ms returns FALSE
T1880 001:010.780 JLINK_HasError()
T1880 001:012.490 JLINK_IsHalted()
T1880 001:012.794 - 0.321ms returns FALSE
T1880 001:012.828 JLINK_HasError()
T1880 001:014.485 JLINK_IsHalted()
T1880 001:014.800 - 0.332ms returns FALSE
T1880 001:014.882 JLINK_HasError()
T1880 001:016.502 JLINK_IsHalted()
T1880 001:016.820 - 0.335ms returns FALSE
T1880 001:016.855 JLINK_HasError()
T1880 001:018.486 JLINK_IsHalted()
T1880 001:018.779 - 0.315ms returns FALSE
T1880 001:018.825 JLINK_HasError()
T1880 001:022.437 JLINK_IsHalted()
T1880 001:022.723 - 0.301ms returns FALSE
T1880 001:022.755 JLINK_HasError()
T1880 001:024.431 JLINK_IsHalted()
T1880 001:024.717 - 0.302ms returns FALSE
T1880 001:024.748 JLINK_HasError()
T1880 001:026.508 JLINK_IsHalted()
T1880 001:026.930 - 0.439ms returns FALSE
T1880 001:026.964 JLINK_HasError()
T1880 001:028.456 JLINK_IsHalted()
T1880 001:028.780 - 0.343ms returns FALSE
T1880 001:028.815 JLINK_HasError()
T1880 001:030.472 JLINK_IsHalted()
T1880 001:030.796 - 0.343ms returns FALSE
T1880 001:030.829 JLINK_HasError()
T1880 001:032.448 JLINK_IsHalted()
T1880 001:032.769 - 0.338ms returns FALSE
T1880 001:032.803 JLINK_HasError()
T1880 001:034.406 JLINK_IsHalted()
T1880 001:034.695 - 0.311ms returns FALSE
T1880 001:034.740 JLINK_HasError()
T1880 001:039.420 JLINK_IsHalted()
T1880 001:042.064   CPU_ReadMem(2 bytes @ 0x20000000)
T1880 001:042.385 - 2.983ms returns TRUE
T1880 001:042.423 JLINK_ReadReg(R15 (PC))
T1880 001:042.450 - 0.038ms returns 0x20000000
T1880 001:042.476 JLINK_ClrBPEx(BPHandle = 0x0000000B)
T1880 001:042.500 - 0.035ms returns 0x00
T1880 001:042.526 JLINK_ReadReg(R0)
T1880 001:042.550 - 0.034ms returns 0x00000000
T1880 001:043.017 JLINK_WriteMem(0x20000164, 0x400 Bytes, ...)
T1880 001:043.045   Data:  08 09 C9 F8 00 80 D1 F8 04 80 08 F4 00 18 B8 F5 ...
T1880 001:043.085   CPU_WriteMem(1024 bytes @ 0x20000164)
T1880 001:048.499 - 5.500ms returns 0x400
T1880 001:048.534 JLINK_HasError()
T1880 001:048.559 JLINK_WriteReg(R0, 0x08001C00)
T1880 001:048.586 - 0.038ms returns 0
T1880 001:048.611 JLINK_WriteReg(R1, 0x00000400)
T1880 001:048.635 - 0.036ms returns 0
